
No compatibility mode selected!


Circuit: * sky130 6t sram — read-mode snm

Doing analysis at TEMP = 27.000000 and TNOM = 27.000000


No. of Data Rows : 361
                       * sky130 6t sram — read-mode snm
                       DC transfer characteristic  Sat May  9 23:49:24  2026
--------------------------------------------------------------------------------
Index   v-sweep         v(vq_src)       v(q_node)       v(qb_out)       
--------------------------------------------------------------------------------
0	0.000000e+00	0.000000e+00	1.021380e+00	1.077458e-02	
1	5.000000e-03	5.000000e-03	1.021580e+00	1.075162e-02	
2	1.000000e-02	1.000000e-02	1.021781e+00	1.072856e-02	
3	1.500000e-02	1.500000e-02	1.021983e+00	1.070549e-02	
4	2.000000e-02	2.000000e-02	1.022186e+00	1.068237e-02	
5	2.500000e-02	2.500000e-02	1.022389e+00	1.065921e-02	
6	3.000000e-02	3.000000e-02	1.022594e+00	1.063601e-02	
7	3.500000e-02	3.500000e-02	1.022799e+00	1.061276e-02	
8	4.000000e-02	4.000000e-02	1.023005e+00	1.058947e-02	
9	4.500000e-02	4.500000e-02	1.023212e+00	1.056613e-02	
10	5.000000e-02	5.000000e-02	1.023419e+00	1.054275e-02	
11	5.500000e-02	5.500000e-02	1.023628e+00	1.051932e-02	
12	6.000000e-02	6.000000e-02	1.023837e+00	1.049585e-02	
13	6.500000e-02	6.500000e-02	1.024047e+00	1.047233e-02	
14	7.000000e-02	7.000000e-02	1.024258e+00	1.044876e-02	
15	7.500000e-02	7.500000e-02	1.024470e+00	1.042515e-02	
16	8.000000e-02	8.000000e-02	1.024683e+00	1.040149e-02	
17	8.500000e-02	8.500000e-02	1.024897e+00	1.037778e-02	
18	9.000000e-02	9.000000e-02	1.025112e+00	1.035403e-02	
19	9.500000e-02	9.500000e-02	1.025327e+00	1.033022e-02	
20	1.000000e-01	1.000000e-01	1.025544e+00	1.030637e-02	
21	1.050000e-01	1.050000e-01	1.025762e+00	1.028246e-02	
22	1.100000e-01	1.100000e-01	1.025980e+00	1.025851e-02	
23	1.150000e-01	1.150000e-01	1.026199e+00	1.023451e-02	
24	1.200000e-01	1.200000e-01	1.026420e+00	1.021045e-02	
25	1.250000e-01	1.250000e-01	1.026641e+00	1.018635e-02	
26	1.300000e-01	1.300000e-01	1.026863e+00	1.016219e-02	
27	1.350000e-01	1.350000e-01	1.027087e+00	1.013798e-02	
28	1.400000e-01	1.400000e-01	1.027311e+00	1.011372e-02	
29	1.450000e-01	1.450000e-01	1.027536e+00	1.008941e-02	
30	1.500000e-01	1.500000e-01	1.027763e+00	1.006505e-02	
31	1.550000e-01	1.550000e-01	1.027990e+00	1.004063e-02	
32	1.600000e-01	1.600000e-01	1.028218e+00	1.001615e-02	
33	1.650000e-01	1.650000e-01	1.028448e+00	9.991622e-03	
34	1.700000e-01	1.700000e-01	1.028678e+00	9.967039e-03	
35	1.750000e-01	1.750000e-01	1.028910e+00	9.942399e-03	
36	1.800000e-01	1.800000e-01	1.029143e+00	9.917704e-03	
37	1.850000e-01	1.850000e-01	1.029377e+00	9.892952e-03	
38	1.900000e-01	1.900000e-01	1.029611e+00	9.868143e-03	
39	1.950000e-01	1.950000e-01	1.029847e+00	9.843276e-03	
40	2.000000e-01	2.000000e-01	1.030085e+00	9.818352e-03	
41	2.050000e-01	2.050000e-01	1.030323e+00	9.793369e-03	
42	2.100000e-01	2.100000e-01	1.030562e+00	9.768326e-03	
43	2.150000e-01	2.150000e-01	1.030803e+00	9.743224e-03	
44	2.200000e-01	2.200000e-01	1.031045e+00	9.718062e-03	
45	2.250000e-01	2.250000e-01	1.031288e+00	9.692838e-03	
46	2.300000e-01	2.300000e-01	1.031532e+00	9.667554e-03	
47	2.350000e-01	2.350000e-01	1.031777e+00	9.642207e-03	
48	2.400000e-01	2.400000e-01	1.032024e+00	9.616798e-03	
49	2.450000e-01	2.450000e-01	1.032272e+00	9.591326e-03	
50	2.500000e-01	2.500000e-01	1.032521e+00	9.565791e-03	
51	2.550000e-01	2.550000e-01	1.032771e+00	9.540191e-03	
52	2.600000e-01	2.600000e-01	1.033023e+00	9.514526e-03	
53	2.650000e-01	2.650000e-01	1.033276e+00	9.488795e-03	
54	2.700000e-01	2.700000e-01	1.033530e+00	9.462999e-03	

Index   v-sweep         v(vq_src)       v(q_node)       v(qb_out)       
--------------------------------------------------------------------------------
55	2.750000e-01	2.750000e-01	1.033786e+00	9.437135e-03	
56	2.800000e-01	2.800000e-01	1.034043e+00	9.411204e-03	
57	2.850000e-01	2.850000e-01	1.034301e+00	9.385205e-03	
58	2.900000e-01	2.900000e-01	1.034560e+00	9.359138e-03	
59	2.950000e-01	2.950000e-01	1.034822e+00	9.333001e-03	
60	3.000000e-01	3.000000e-01	1.035084e+00	9.306793e-03	
61	3.050000e-01	3.050000e-01	1.035348e+00	9.280515e-03	
62	3.100000e-01	3.100000e-01	1.035613e+00	9.254165e-03	
63	3.150000e-01	3.150000e-01	1.035880e+00	9.227743e-03	
64	3.200000e-01	3.200000e-01	1.036148e+00	9.201248e-03	
65	3.250000e-01	3.250000e-01	1.036418e+00	9.174680e-03	
66	3.300000e-01	3.300000e-01	1.036689e+00	9.148036e-03	
67	3.350000e-01	3.350000e-01	1.036962e+00	9.121318e-03	
68	3.400000e-01	3.400000e-01	1.037236e+00	9.094523e-03	
69	3.450000e-01	3.450000e-01	1.037512e+00	9.067652e-03	
70	3.500000e-01	3.500000e-01	1.037789e+00	9.040703e-03	
71	3.550000e-01	3.550000e-01	1.038068e+00	9.013676e-03	
72	3.600000e-01	3.600000e-01	1.038349e+00	8.986569e-03	
73	3.650000e-01	3.650000e-01	1.038631e+00	8.959382e-03	
74	3.700000e-01	3.700000e-01	1.038915e+00	8.932114e-03	
75	3.750000e-01	3.750000e-01	1.039201e+00	8.904764e-03	
76	3.800000e-01	3.800000e-01	1.039488e+00	8.877332e-03	
77	3.850000e-01	3.850000e-01	1.039777e+00	8.849816e-03	
78	3.900000e-01	3.900000e-01	1.040068e+00	8.822215e-03	
79	3.950000e-01	3.950000e-01	1.040360e+00	8.794529e-03	
80	4.000000e-01	4.000000e-01	1.040654e+00	8.766756e-03	
81	4.050000e-01	4.050000e-01	1.040951e+00	8.738896e-03	
82	4.100000e-01	4.100000e-01	1.041248e+00	8.710948e-03	
83	4.150000e-01	4.150000e-01	1.041548e+00	8.682910e-03	
84	4.200000e-01	4.200000e-01	1.041850e+00	8.654782e-03	
85	4.250000e-01	4.250000e-01	1.042154e+00	8.626562e-03	
86	4.300000e-01	4.300000e-01	1.042459e+00	8.598250e-03	
87	4.350000e-01	4.350000e-01	1.042767e+00	8.569844e-03	
88	4.400000e-01	4.400000e-01	1.043076e+00	8.541344e-03	
89	4.450000e-01	4.450000e-01	1.043388e+00	8.512748e-03	
90	4.500000e-01	4.500000e-01	1.043701e+00	8.484056e-03	
91	4.550000e-01	4.550000e-01	1.044017e+00	8.455265e-03	
92	4.600000e-01	4.600000e-01	1.044334e+00	8.426375e-03	
93	4.650000e-01	4.650000e-01	1.044654e+00	8.397385e-03	
94	4.700000e-01	4.700000e-01	1.044976e+00	8.368293e-03	
95	4.750000e-01	4.750000e-01	1.045300e+00	8.339098e-03	
96	4.800000e-01	4.800000e-01	1.045627e+00	8.309800e-03	
97	4.850000e-01	4.850000e-01	1.045956e+00	8.280396e-03	
98	4.900000e-01	4.900000e-01	1.046287e+00	8.250885e-03	
99	4.950000e-01	4.950000e-01	1.046620e+00	8.221267e-03	
100	5.000000e-01	5.000000e-01	1.046956e+00	8.191539e-03	
101	5.050000e-01	5.050000e-01	1.047294e+00	8.161700e-03	
102	5.100000e-01	5.100000e-01	1.047634e+00	8.131750e-03	
103	5.150000e-01	5.150000e-01	1.047977e+00	8.101686e-03	
104	5.200000e-01	5.200000e-01	1.048322e+00	8.071507e-03	
105	5.250000e-01	5.250000e-01	1.048670e+00	8.041211e-03	
106	5.300000e-01	5.300000e-01	1.049021e+00	8.010798e-03	
107	5.350000e-01	5.350000e-01	1.049374e+00	7.980265e-03	
108	5.400000e-01	5.400000e-01	1.049730e+00	7.949611e-03	
109	5.450000e-01	5.450000e-01	1.050089e+00	7.918834e-03	
110	5.500000e-01	5.500000e-01	1.050450e+00	7.887932e-03	
111	5.550000e-01	5.550000e-01	1.050814e+00	7.856905e-03	
112	5.600000e-01	5.600000e-01	1.051181e+00	7.825750e-03	

Index   v-sweep         v(vq_src)       v(q_node)       v(qb_out)       
--------------------------------------------------------------------------------
113	5.650000e-01	5.650000e-01	1.051551e+00	7.794466e-03	
114	5.700000e-01	5.700000e-01	1.051924e+00	7.763050e-03	
115	5.750000e-01	5.750000e-01	1.052299e+00	7.731501e-03	
116	5.800000e-01	5.800000e-01	1.052678e+00	7.699817e-03	
117	5.850000e-01	5.850000e-01	1.053060e+00	7.667996e-03	
118	5.900000e-01	5.900000e-01	1.053445e+00	7.636036e-03	
119	5.950000e-01	5.950000e-01	1.053833e+00	7.603936e-03	
120	6.000000e-01	6.000000e-01	1.054225e+00	7.571693e-03	
121	6.050000e-01	6.050000e-01	1.054620e+00	7.539304e-03	
122	6.100000e-01	6.100000e-01	1.055018e+00	7.506769e-03	
123	6.150000e-01	6.150000e-01	1.055419e+00	7.474085e-03	
124	6.200000e-01	6.200000e-01	1.055824e+00	7.441249e-03	
125	6.250000e-01	6.250000e-01	1.056233e+00	7.408259e-03	
126	6.300000e-01	6.300000e-01	1.056645e+00	7.375113e-03	
127	6.350000e-01	6.350000e-01	1.057061e+00	7.341809e-03	
128	6.400000e-01	6.400000e-01	1.057481e+00	7.308344e-03	
129	6.450000e-01	6.450000e-01	1.057904e+00	7.274716e-03	
130	6.500000e-01	6.500000e-01	1.058332e+00	7.240922e-03	
131	6.550000e-01	6.550000e-01	1.058763e+00	7.206960e-03	
132	6.600000e-01	6.600000e-01	1.059198e+00	7.172826e-03	
133	6.650000e-01	6.650000e-01	1.059638e+00	7.138518e-03	
134	6.700000e-01	6.700000e-01	1.060082e+00	7.104034e-03	
135	6.750000e-01	6.750000e-01	1.060530e+00	7.069370e-03	
136	6.800000e-01	6.800000e-01	1.060982e+00	7.034524e-03	
137	6.850000e-01	6.850000e-01	1.061439e+00	6.999492e-03	
138	6.900000e-01	6.900000e-01	1.061900e+00	6.964272e-03	
139	6.950000e-01	6.950000e-01	1.062366e+00	6.928860e-03	
140	7.000000e-01	7.000000e-01	1.062837e+00	6.893253e-03	
141	7.050000e-01	7.050000e-01	1.063313e+00	6.857447e-03	
142	7.100000e-01	7.100000e-01	1.063793e+00	6.821440e-03	
143	7.150000e-01	7.150000e-01	1.064279e+00	6.785228e-03	
144	7.200000e-01	7.200000e-01	1.064770e+00	6.748806e-03	
145	7.250000e-01	7.250000e-01	1.065266e+00	6.712172e-03	
146	7.300000e-01	7.300000e-01	1.065768e+00	6.675322e-03	
147	7.350000e-01	7.350000e-01	1.066275e+00	6.638252e-03	
148	7.400000e-01	7.400000e-01	1.066787e+00	6.600957e-03	
149	7.450000e-01	7.450000e-01	1.067306e+00	6.563434e-03	
150	7.500000e-01	7.500000e-01	1.067830e+00	6.525678e-03	
151	7.550000e-01	7.550000e-01	1.068361e+00	6.487685e-03	
152	7.600000e-01	7.600000e-01	1.068898e+00	6.449451e-03	
153	7.650000e-01	7.650000e-01	1.069441e+00	6.410970e-03	
154	7.700000e-01	7.700000e-01	1.069990e+00	6.372239e-03	
155	7.750000e-01	7.750000e-01	1.070546e+00	6.333252e-03	
156	7.800000e-01	7.800000e-01	1.071109e+00	6.294005e-03	
157	7.850000e-01	7.850000e-01	1.071679e+00	6.254492e-03	
158	7.900000e-01	7.900000e-01	1.072256e+00	6.214707e-03	
159	7.950000e-01	7.950000e-01	1.072841e+00	6.174646e-03	
160	8.000000e-01	8.000000e-01	1.073433e+00	6.134303e-03	
161	8.050000e-01	8.050000e-01	1.074033e+00	6.093672e-03	
162	8.100000e-01	8.100000e-01	1.074641e+00	6.052747e-03	
163	8.150000e-01	8.150000e-01	1.075257e+00	6.011521e-03	
164	8.200000e-01	8.200000e-01	1.075881e+00	5.969989e-03	
165	8.250000e-01	8.250000e-01	1.076514e+00	5.928144e-03	
166	8.300000e-01	8.300000e-01	1.077156e+00	5.885979e-03	
167	8.350000e-01	8.350000e-01	1.077807e+00	5.843487e-03	
168	8.400000e-01	8.400000e-01	1.078467e+00	5.800661e-03	
169	8.450000e-01	8.450000e-01	1.079137e+00	5.757493e-03	
170	8.500000e-01	8.500000e-01	1.079817e+00	5.713976e-03	

Index   v-sweep         v(vq_src)       v(q_node)       v(qb_out)       
--------------------------------------------------------------------------------
171	8.550000e-01	8.550000e-01	1.080507e+00	5.670102e-03	
172	8.600000e-01	8.600000e-01	1.081208e+00	5.625863e-03	
173	8.650000e-01	8.650000e-01	1.081919e+00	5.581250e-03	
174	8.700000e-01	8.700000e-01	1.082642e+00	5.536254e-03	
175	8.750000e-01	8.750000e-01	1.083376e+00	5.490867e-03	
176	8.800000e-01	8.800000e-01	1.084122e+00	5.445079e-03	
177	8.850000e-01	8.850000e-01	1.084881e+00	5.398880e-03	
178	8.900000e-01	8.900000e-01	1.085652e+00	5.352261e-03	
179	8.950000e-01	8.950000e-01	1.086436e+00	5.305211e-03	
180	9.000000e-01	9.000000e-01	1.087234e+00	5.257719e-03	
181	9.050000e-01	9.050000e-01	1.088046e+00	5.209774e-03	
182	9.100000e-01	9.100000e-01	1.088873e+00	5.161365e-03	
183	9.150000e-01	9.150000e-01	1.089714e+00	5.112480e-03	
184	9.200000e-01	9.200000e-01	1.090571e+00	5.063107e-03	
185	9.250000e-01	9.250000e-01	1.091444e+00	5.013233e-03	
186	9.300000e-01	9.300000e-01	1.092334e+00	4.962845e-03	
187	9.350000e-01	9.350000e-01	1.093241e+00	4.911929e-03	
188	9.400000e-01	9.400000e-01	1.094166e+00	4.860472e-03	
189	9.450000e-01	9.450000e-01	1.095110e+00	4.808458e-03	
190	9.500000e-01	9.500000e-01	1.096073e+00	4.755874e-03	
191	9.550000e-01	9.550000e-01	1.097057e+00	4.702702e-03	
192	9.600000e-01	9.600000e-01	1.098061e+00	4.648928e-03	
193	9.650000e-01	9.650000e-01	1.099088e+00	4.594534e-03	
194	9.700000e-01	9.700000e-01	1.100137e+00	4.539504e-03	
195	9.750000e-01	9.750000e-01	1.101209e+00	4.483819e-03	
196	9.800000e-01	9.800000e-01	1.102307e+00	4.427463e-03	
197	9.850000e-01	9.850000e-01	1.103430e+00	4.370415e-03	
198	9.900000e-01	9.900000e-01	1.104580e+00	4.312658e-03	
199	9.950000e-01	9.950000e-01	1.105758e+00	4.254170e-03	
200	1.000000e+00	1.000000e+00	1.106965e+00	4.194933e-03	
201	1.005000e+00	1.005000e+00	1.108203e+00	4.134924e-03	
202	1.010000e+00	1.010000e+00	1.109474e+00	4.074124e-03	
203	1.015000e+00	1.015000e+00	1.110778e+00	4.012511e-03	
204	1.020000e+00	1.020000e+00	1.112117e+00	3.950063e-03	
205	1.025000e+00	1.025000e+00	1.113493e+00	3.886759e-03	
206	1.030000e+00	1.030000e+00	1.114908e+00	3.822576e-03	
207	1.035000e+00	1.035000e+00	1.116363e+00	3.757493e-03	
208	1.040000e+00	1.040000e+00	1.117861e+00	3.691488e-03	
209	1.045000e+00	1.045000e+00	1.119404e+00	3.624540e-03	
210	1.050000e+00	1.050000e+00	1.120994e+00	3.556630e-03	
211	1.055000e+00	1.055000e+00	1.122633e+00	3.487737e-03	
212	1.060000e+00	1.060000e+00	1.124325e+00	3.417844e-03	
213	1.065000e+00	1.065000e+00	1.126071e+00	3.346935e-03	
214	1.070000e+00	1.070000e+00	1.127875e+00	3.274997e-03	
215	1.075000e+00	1.075000e+00	1.129739e+00	3.202020e-03	
216	1.080000e+00	1.080000e+00	1.131668e+00	3.127996e-03	
217	1.085000e+00	1.085000e+00	1.133663e+00	3.052924e-03	
218	1.090000e+00	1.090000e+00	1.135728e+00	2.976807e-03	
219	1.095000e+00	1.095000e+00	1.137867e+00	2.899655e-03	
220	1.100000e+00	1.100000e+00	1.140084e+00	2.821485e-03	
221	1.105000e+00	1.105000e+00	1.142382e+00	2.742326e-03	
222	1.110000e+00	1.110000e+00	1.144766e+00	2.662213e-03	
223	1.115000e+00	1.115000e+00	1.147238e+00	2.581197e-03	
224	1.120000e+00	1.120000e+00	1.149802e+00	2.499339e-03	
225	1.125000e+00	1.125000e+00	1.152463e+00	2.416720e-03	
226	1.130000e+00	1.130000e+00	1.155224e+00	2.333432e-03	
227	1.135000e+00	1.135000e+00	1.158088e+00	2.249590e-03	
228	1.140000e+00	1.140000e+00	1.161058e+00	2.165324e-03	

Index   v-sweep         v(vq_src)       v(q_node)       v(qb_out)       
--------------------------------------------------------------------------------
229	1.145000e+00	1.145000e+00	1.164136e+00	2.080787e-03	
230	1.150000e+00	1.150000e+00	1.167325e+00	1.996149e-03	
231	1.155000e+00	1.155000e+00	1.170625e+00	1.911601e-03	
232	1.160000e+00	1.160000e+00	1.174039e+00	1.827351e-03	
233	1.165000e+00	1.165000e+00	1.177564e+00	1.743622e-03	
234	1.170000e+00	1.170000e+00	1.181202e+00	1.660649e-03	
235	1.175000e+00	1.175000e+00	1.184949e+00	1.578676e-03	
236	1.180000e+00	1.180000e+00	1.188803e+00	1.497949e-03	
237	1.185000e+00	1.185000e+00	1.192760e+00	1.418714e-03	
238	1.190000e+00	1.190000e+00	1.196817e+00	1.341207e-03	
239	1.195000e+00	1.195000e+00	1.200968e+00	1.265653e-03	
240	1.200000e+00	1.200000e+00	1.205208e+00	1.192257e-03	
241	1.205000e+00	1.205000e+00	1.209531e+00	1.121203e-03	
242	1.210000e+00	1.210000e+00	1.213931e+00	1.052650e-03	
243	1.215000e+00	1.215000e+00	1.218401e+00	9.867290e-04	
244	1.220000e+00	1.220000e+00	1.222936e+00	9.235409e-04	
245	1.225000e+00	1.225000e+00	1.227528e+00	8.631587e-04	
246	1.230000e+00	1.230000e+00	1.232172e+00	8.056269e-04	
247	1.235000e+00	1.235000e+00	1.236863e+00	7.509638e-04	
248	1.240000e+00	1.240000e+00	1.241595e+00	6.991628e-04	
249	1.245000e+00	1.245000e+00	1.246364e+00	6.501960e-04	
250	1.250000e+00	1.250000e+00	1.251164e+00	6.040160e-04	
251	1.255000e+00	1.255000e+00	1.255993e+00	5.605594e-04	
252	1.260000e+00	1.260000e+00	1.260846e+00	5.197493e-04	
253	1.265000e+00	1.265000e+00	1.265719e+00	4.814980e-04	
254	1.270000e+00	1.270000e+00	1.270611e+00	4.457092e-04	
255	1.275000e+00	1.275000e+00	1.275519e+00	4.122804e-04	
256	1.280000e+00	1.280000e+00	1.280440e+00	3.811049e-04	
257	1.285000e+00	1.285000e+00	1.285373e+00	3.520731e-04	
258	1.290000e+00	1.290000e+00	1.290316e+00	3.250746e-04	
259	1.295000e+00	1.295000e+00	1.295268e+00	2.999987e-04	
260	1.300000e+00	1.300000e+00	1.300227e+00	2.767360e-04	
261	1.305000e+00	1.305000e+00	1.305192e+00	2.551792e-04	
262	1.310000e+00	1.310000e+00	1.310162e+00	2.352233e-04	
263	1.315000e+00	1.315000e+00	1.315137e+00	2.167667e-04	
264	1.320000e+00	1.320000e+00	1.320115e+00	1.997116e-04	
265	1.325000e+00	1.325000e+00	1.325097e+00	1.839638e-04	
266	1.330000e+00	1.330000e+00	1.330082e+00	1.694335e-04	
267	1.335000e+00	1.335000e+00	1.335069e+00	1.560353e-04	
268	1.340000e+00	1.340000e+00	1.340058e+00	1.436881e-04	
269	1.345000e+00	1.345000e+00	1.345049e+00	1.323151e-04	
270	1.350000e+00	1.350000e+00	1.350041e+00	1.218442e-04	
271	1.355000e+00	1.355000e+00	1.355034e+00	1.122075e-04	
272	1.360000e+00	1.360000e+00	1.360029e+00	1.033414e-04	
273	1.365000e+00	1.365000e+00	1.365024e+00	9.518634e-05	
274	1.370000e+00	1.370000e+00	1.370020e+00	8.768688e-05	
275	1.375000e+00	1.375000e+00	1.375017e+00	8.079134e-05	
276	1.380000e+00	1.380000e+00	1.380014e+00	7.445172e-05	
277	1.385000e+00	1.385000e+00	1.385011e+00	6.862347e-05	
278	1.390000e+00	1.390000e+00	1.390009e+00	6.326538e-05	
279	1.395000e+00	1.395000e+00	1.395008e+00	5.833933e-05	
280	1.400000e+00	1.400000e+00	1.400006e+00	5.381011e-05	
281	1.405000e+00	1.405000e+00	1.405005e+00	4.964527e-05	
282	1.410000e+00	1.410000e+00	1.410004e+00	4.581493e-05	
283	1.415000e+00	1.415000e+00	1.415003e+00	4.229158e-05	
284	1.420000e+00	1.420000e+00	1.420002e+00	3.904994e-05	
285	1.425000e+00	1.425000e+00	1.425002e+00	3.606679e-05	
286	1.430000e+00	1.430000e+00	1.430001e+00	3.332081e-05	

Index   v-sweep         v(vq_src)       v(q_node)       v(qb_out)       
--------------------------------------------------------------------------------
287	1.435000e+00	1.435000e+00	1.435001e+00	3.079246e-05	
288	1.440000e+00	1.440000e+00	1.440000e+00	2.846382e-05	
289	1.445000e+00	1.445000e+00	1.445000e+00	2.631846e-05	
290	1.450000e+00	1.450000e+00	1.450000e+00	2.434133e-05	
291	1.455000e+00	1.455000e+00	1.455000e+00	2.251866e-05	
292	1.460000e+00	1.460000e+00	1.459999e+00	2.083782e-05	
293	1.465000e+00	1.465000e+00	1.464999e+00	1.928727e-05	
294	1.470000e+00	1.470000e+00	1.469999e+00	1.785642e-05	
295	1.475000e+00	1.475000e+00	1.474999e+00	1.653559e-05	
296	1.480000e+00	1.480000e+00	1.479999e+00	1.531591e-05	
297	1.485000e+00	1.485000e+00	1.484999e+00	1.418926e-05	
298	1.490000e+00	1.490000e+00	1.489999e+00	1.314820e-05	
299	1.495000e+00	1.495000e+00	1.494999e+00	1.218592e-05	
300	1.500000e+00	1.500000e+00	1.499999e+00	1.129617e-05	
301	1.505000e+00	1.505000e+00	1.504999e+00	1.047323e-05	
302	1.510000e+00	1.510000e+00	1.509999e+00	9.711851e-06	
303	1.515000e+00	1.515000e+00	1.514999e+00	9.007218e-06	
304	1.520000e+00	1.520000e+00	1.519999e+00	8.354913e-06	
305	1.525000e+00	1.525000e+00	1.524999e+00	7.750880e-06	
306	1.530000e+00	1.530000e+00	1.529999e+00	7.191397e-06	
307	1.535000e+00	1.535000e+00	1.534999e+00	6.673040e-06	
308	1.540000e+00	1.540000e+00	1.539999e+00	6.192667e-06	
309	1.545000e+00	1.545000e+00	1.544998e+00	5.747385e-06	
310	1.550000e+00	1.550000e+00	1.549998e+00	5.334535e-06	
311	1.555000e+00	1.555000e+00	1.554998e+00	4.951669e-06	
312	1.560000e+00	1.560000e+00	1.559998e+00	4.596534e-06	
313	1.565000e+00	1.565000e+00	1.564998e+00	4.267053e-06	
314	1.570000e+00	1.570000e+00	1.569998e+00	3.961314e-06	
315	1.575000e+00	1.575000e+00	1.574998e+00	3.677553e-06	
316	1.580000e+00	1.580000e+00	1.579998e+00	3.414145e-06	
317	1.585000e+00	1.585000e+00	1.584998e+00	3.169588e-06	
318	1.590000e+00	1.590000e+00	1.589998e+00	2.942499e-06	
319	1.595000e+00	1.595000e+00	1.594998e+00	2.731597e-06	
320	1.600000e+00	1.600000e+00	1.599998e+00	2.535703e-06	
321	1.605000e+00	1.605000e+00	1.604998e+00	2.353725e-06	
322	1.610000e+00	1.610000e+00	1.609998e+00	2.184654e-06	
323	1.615000e+00	1.615000e+00	1.614998e+00	2.027557e-06	
324	1.620000e+00	1.620000e+00	1.619998e+00	1.881571e-06	
325	1.625000e+00	1.625000e+00	1.624998e+00	1.745899e-06	
326	1.630000e+00	1.630000e+00	1.629998e+00	1.619801e-06	
327	1.635000e+00	1.635000e+00	1.634998e+00	1.502594e-06	
328	1.640000e+00	1.640000e+00	1.639998e+00	1.393643e-06	
